__time,/amcl_pose/header/seq,/amcl_pose/header/stamp,/amcl_pose/pose/covariance[0],/amcl_pose/pose/covariance[10],/amcl_pose/pose/covariance[11],/amcl_pose/pose/covariance[12],/amcl_pose/pose/covariance[13],/amcl_pose/pose/covariance[14],/amcl_pose/pose/covariance[15],/amcl_pose/pose/covariance[16],/amcl_pose/pose/covariance[17],/amcl_pose/pose/covariance[18],/amcl_pose/pose/covariance[19],/amcl_pose/pose/covariance[1],/amcl_pose/pose/covariance[20],/amcl_pose/pose/covariance[21],/amcl_pose/pose/covariance[22],/amcl_pose/pose/covariance[23],/amcl_pose/pose/covariance[24],/amcl_pose/pose/covariance[25],/amcl_pose/pose/covariance[26],/amcl_pose/pose/covariance[27],/amcl_pose/pose/covariance[28],/amcl_pose/pose/covariance[29],/amcl_pose/pose/covariance[2],/amcl_pose/pose/covariance[30],/amcl_pose/pose/covariance[31],/amcl_pose/pose/covariance[32],/amcl_pose/pose/covariance[33],/amcl_pose/pose/covariance[34],/amcl_pose/pose/covariance[35],/amcl_pose/pose/covariance[3],/amcl_pose/pose/covariance[4],/amcl_pose/pose/covariance[5],/amcl_pose/pose/covariance[6],/amcl_pose/pose/covariance[7],/amcl_pose/pose/covariance[8],/amcl_pose/pose/covariance[9],/amcl_pose/pose/pose/orientation/w,/amcl_pose/pose/pose/orientation/x,/amcl_pose/pose/pose/orientation/y,/amcl_pose/pose/pose/orientation/z,/amcl_pose/pose/pose/position/x,/amcl_pose/pose/pose/position/y,/amcl_pose/pose/pose/position/z,Lower Bound X,Lower Bound Y,Upper Bound X,Upper Bound Y
1686072672.727312,1.000000000,1686072672.671326637,0.003660264,0.000000000,0.000000000,0.000000000,0.000000000,0.000000000,0.000000000,0.000000000,0.000000000,0.000000000,0.000000000,-0.000199377,0.000000000,0.000000000,0.000000000,0.000000000,0.000000000,0.000000000,0.000000000,0.000000000,0.000000000,0.000000000,0.000000000,0.000000000,0.000000000,0.000000000,0.000000000,0.000000000,0.005337967,0.000000000,0.000000000,0.000000000,-0.000199377,0.004571909,0.000000000,0.000000000,0.999822275,0.000000000,0.000000000,-0.018852534,0.033953931,-0.002801440,0.000000000,-0.087046307,-0.138033234,0.154954169,0.132430353
1686072674.276182,2.000000000,1686072674.277539015,0.003467149,0.000000000,0.000000000,0.000000000,0.000000000,0.000000000,0.000000000,0.000000000,0.000000000,0.000000000,0.000000000,-0.000205270,0.000000000,0.000000000,0.000000000,0.000000000,0.000000000,0.000000000,0.000000000,0.000000000,0.000000000,0.000000000,0.000000000,0.000000000,0.000000000,0.000000000,0.000000000,0.000000000,0.004763872,0.000000000,0.000000000,0.000000000,-0.000205270,0.004153813,0.000000000,0.000000000,0.999730794,0.000000000,0.000000000,-0.023202149,0.079904196,-0.008064948,0.000000000,-0.037860812,-0.136965111,0.197669203,0.120835216
1686072674.708673,3.000000000,1686072674.679978371,0.003844014,0.000000000,0.000000000,0.000000000,0.000000000,0.000000000,0.000000000,0.000000000,0.000000000,0.000000000,0.000000000,-0.000266407,0.000000000,0.000000000,0.000000000,0.000000000,0.000000000,0.000000000,0.000000000,0.000000000,0.000000000,0.000000000,0.000000000,0.000000000,0.000000000,0.000000000,0.000000000,0.000000000,0.005116522,0.000000000,0.000000000,0.000000000,-0.000266407,0.003889678,0.000000000,0.000000000,0.999747329,0.000000000,0.000000000,-0.022478390,0.161587178,-0.012584647,0.000000000,0.037586945,-0.137319206,0.285587412,0.112149912
1686072675.101010,4.000000000,1686072675.081214190,0.004179217,0.000000000,0.000000000,0.000000000,0.000000000,0.000000000,0.000000000,0.000000000,0.000000000,0.000000000,0.000000000,-0.000325393,0.000000000,0.000000000,0.000000000,0.000000000,0.000000000,0.000000000,0.000000000,0.000000000,0.000000000,0.000000000,0.000000000,0.000000000,0.000000000,0.000000000,0.000000000,0.000000000,0.004639211,0.000000000,0.000000000,0.000000000,-0.000325393,0.003480620,0.000000000,0.000000000,0.999729365,0.000000000,0.000000000,-0.023263619,0.240405783,-0.020462199,0.000000000,0.111112053,-0.138455753,0.369699513,0.097531355
1686072675.513415,5.000000000,1686072675.482491970,0.004540968,0.000000000,0.000000000,0.000000000,0.000000000,0.000000000,0.000000000,0.000000000,0.000000000,0.000000000,0.000000000,-0.000665362,0.000000000,0.000000000,0.000000000,0.000000000,0.000000000,0.000000000,0.000000000,0.000000000,0.000000000,0.000000000,0.000000000,0.000000000,0.000000000,0.000000000,0.000000000,0.000000000,0.004076155,0.000000000,0.000000000,0.000000000,-0.000665362,0.003597482,0.000000000,0.000000000,0.999648427,0.000000000,0.000000000,-0.026514581,0.314042972,-0.030456782,0.000000000,0.179269562,-0.150414811,0.448816382,0.089501248
1686072675.915748,6.000000000,1686072675.883731365,0.006275122,0.000000000,0.000000000,0.000000000,0.000000000,0.000000000,0.000000000,0.000000000,0.000000000,0.000000000,0.000000000,-0.000862667,0.000000000,0.000000000,0.000000000,0.000000000,0.000000000,0.000000000,0.000000000,0.000000000,0.000000000,0.000000000,0.000000000,0.000000000,0.000000000,0.000000000,0.000000000,0.000000000,0.004131312,0.000000000,0.000000000,0.000000000,-0.000862667,0.003110042,0.000000000,0.000000000,0.999258936,0.000000000,0.000000000,-0.038491289,0.385726944,-0.030399030,0.000000000,0.227295612,-0.141934536,0.544158275,0.081136476
1686072676.308105,7.000000000,1686072676.284947872,0.007080750,0.000000000,0.000000000,0.000000000,0.000000000,0.000000000,0.000000000,0.000000000,0.000000000,0.000000000,0.000000000,-0.001094131,0.000000000,0.000000000,0.000000000,0.000000000,0.000000000,0.000000000,0.000000000,0.000000000,0.000000000,0.000000000,0.000000000,0.000000000,0.000000000,0.000000000,0.000000000,0.000000000,0.004021374,0.000000000,0.000000000,0.000000000,-0.001094131,0.002786240,0.000000000,0.000000000,0.998433744,0.000000000,0.000000000,-0.055946933,0.464506222,-0.039151780,0.000000000,0.296211833,-0.144721472,0.632800612,0.066417911
1686072676.720485,8.000000000,1686072676.686172009,0.007071010,0.000000000,0.000000000,0.000000000,0.000000000,0.000000000,0.000000000,0.000000000,0.000000000,0.000000000,0.000000000,-0.001168441,0.000000000,0.000000000,0.000000000,0.000000000,0.000000000,0.000000000,0.000000000,0.000000000,0.000000000,0.000000000,0.000000000,0.000000000,0.000000000,0.000000000,0.000000000,0.000000000,0.004656013,0.000000000,0.000000000,0.000000000,-0.001168441,0.002695624,0.000000000,0.000000000,0.996934781,0.000000000,0.000000000,-0.078237097,0.535089761,-0.048948173,0.000000000,0.366911160,-0.152786968,0.703268362,0.054890623
1686072677.132888,9.000000000,1686072677.091149092,0.007314183,0.000000000,0.000000000,0.000000000,0.000000000,0.000000000,0.000000000,0.000000000,0.000000000,0.000000000,0.000000000,-0.001588335,0.000000000,0.000000000,0.000000000,0.000000000,0.000000000,0.000000000,0.000000000,0.000000000,0.000000000,0.000000000,0.000000000,0.000000000,0.000000000,0.000000000,0.000000000,0.000000000,0.004685727,0.000000000,0.000000000,0.000000000,-0.001588335,0.002667978,0.000000000,0.000000000,0.994802675,0.000000000,0.000000000,-0.101821599,0.606164264,-0.065252071,0.000000000,0.435118273,-0.168557008,0.777210254,0.038052867
1686072677.726367,10.000000000,1686072677.689743757,0.008339700,0.000000000,0.000000000,0.000000000,0.000000000,0.000000000,0.000000000,0.000000000,0.000000000,0.000000000,0.000000000,-0.001378213,0.000000000,0.000000000,0.000000000,0.000000000,0.000000000,0.000000000,0.000000000,0.000000000,0.000000000,0.000000000,0.000000000,0.000000000,0.000000000,0.000000000,0.000000000,0.000000000,0.006306545,0.000000000,0.000000000,0.000000000,-0.001378213,0.002713290,0.000000000,0.000000000,0.999683329,0.000000000,0.000000000,-0.025164304,0.708779831,-0.084870736,0.000000000,0.526135912,-0.189049245,0.891423750,0.019307773
1686072678.118605,11.000000000,1686072678.090978861,0.009677442,0.000000000,0.000000000,0.000000000,0.000000000,0.000000000,0.000000000,0.000000000,0.000000000,0.000000000,0.000000000,-0.001302748,0.000000000,0.000000000,0.000000000,0.000000000,0.000000000,0.000000000,0.000000000,0.000000000,0.000000000,0.000000000,0.000000000,0.000000000,0.000000000,0.000000000,0.000000000,0.000000000,0.007904832,0.000000000,0.000000000,0.000000000,-0.001302748,0.002667698,0.000000000,0.000000000,0.997212948,0.000000000,0.000000000,0.074607883,0.759036768,-0.086972352,0.000000000,0.562288784,-0.190271884,0.955784753,0.016327181
1686072678.490832,12.000000000,1686072678.492351294,0.009886496,0.000000000,0.000000000,0.000000000,0.000000000,0.000000000,0.000000000,0.000000000,0.000000000,0.000000000,0.000000000,-0.000634983,0.000000000,0.000000000,0.000000000,0.000000000,0.000000000,0.000000000,0.000000000,0.000000000,0.000000000,0.000000000,0.000000000,0.000000000,0.000000000,0.000000000,0.000000000,0.000000000,0.008352723,0.000000000,0.000000000,0.000000000,-0.000634983,0.002710891,0.000000000,0.000000000,0.983981747,0.000000000,0.000000000,0.178269239,0.807960884,-0.073559563,0.000000000,0.609099159,-0.177691999,1.006822608,0.030572872
1686072678.893167,13.000000000,1686072678.893595457,0.009038840,0.000000000,0.000000000,0.000000000,0.000000000,0.000000000,0.000000000,0.000000000,0.000000000,0.000000000,0.000000000,0.000384591,0.000000000,0.000000000,0.000000000,0.000000000,0.000000000,0.000000000,0.000000000,0.000000000,0.000000000,0.000000000,0.000000000,0.000000000,0.000000000,0.000000000,0.000000000,0.000000000,0.008418702,0.000000000,0.000000000,0.000000000,0.000384591,0.003351116,0.000000000,0.000000000,0.960463751,0.000000000,0.000000000,0.278405071,0.849110974,-0.051236311,0.000000000,0.658965341,-0.167013954,1.039256607,0.064541332
1686072679.315604,14.000000000,1686072679.294955492,0.008843260,0.000000000,0.000000000,0.000000000,0.000000000,0.000000000,0.000000000,0.000000000,0.000000000,0.000000000,0.000000000,0.000971235,0.000000000,0.000000000,0.000000000,0.000000000,0.000000000,0.000000000,0.000000000,0.000000000,0.000000000,0.000000000,0.000000000,0.000000000,0.000000000,0.000000000,0.000000000,0.000000000,0.007559067,0.000000000,0.000000000,0.000000000,0.000971235,0.003135867,0.000000000,0.000000000,0.940709806,0.000000000,0.000000000,0.339212414,0.891846712,-0.019564349,0.000000000,0.703769491,-0.131561968,1.079923932,0.092433270
1686072679.748032,15.000000000,1686072679.696195364,0.008630022,0.000000000,0.000000000,0.000000000,0.000000000,0.000000000,0.000000000,0.000000000,0.000000000,0.000000000,0.000000000,0.001363914,0.000000000,0.000000000,0.000000000,0.000000000,0.000000000,0.000000000,0.000000000,0.000000000,0.000000000,0.000000000,0.000000000,0.000000000,0.000000000,0.000000000,0.000000000,0.000000000,0.006486353,0.000000000,0.000000000,0.000000000,0.001363914,0.003512875,0.000000000,0.000000000,0.914278979,0.000000000,0.000000000,0.405085112,0.934141395,0.021039021,0.000000000,0.748345574,-0.097500000,1.119937216,0.139578042
1686072680.130107,16.000000000,1686072680.098648787,0.007878426,0.000000000,0.000000000,0.000000000,0.000000000,0.000000000,0.000000000,0.000000000,0.000000000,0.000000000,0.000000000,0.001762748,0.000000000,0.000000000,0.000000000,0.000000000,0.000000000,0.000000000,0.000000000,0.000000000,0.000000000,0.000000000,0.000000000,0.000000000,0.000000000,0.000000000,0.000000000,0.000000000,0.005960173,0.000000000,0.000000000,0.000000000,0.001762748,0.004130693,0.000000000,0.000000000,0.884189200,0.000000000,0.000000000,0.467128953,0.976314941,0.069490637,0.000000000,0.798793942,-0.059050302,1.153835939,0.198031576
1686072680.512281,17.000000000,1686072680.499881029,0.007009168,0.000000000,0.000000000,0.000000000,0.000000000,0.000000000,0.000000000,0.000000000,0.000000000,0.000000000,0.000000000,0.001777885,0.000000000,0.000000000,0.000000000,0.000000000,0.000000000,0.000000000,0.000000000,0.000000000,0.000000000,0.000000000,0.000000000,0.000000000,0.000000000,0.000000000,0.000000000,0.000000000,0.006148436,0.000000000,0.000000000,0.000000000,0.001777885,0.004364280,0.000000000,0.000000000,0.851115663,0.000000000,0.000000000,0.524978217,1.010456738,0.129690172,0.000000000,0.843015194,-0.002435219,1.177898281,0.261815562
1686072680.964914,18.000000000,1686072680.901182890,0.005793584,0.000000000,0.000000000,0.000000000,0.000000000,0.000000000,0.000000000,0.000000000,0.000000000,0.000000000,0.000000000,0.001581239,0.000000000,0.000000000,0.000000000,0.000000000,0.000000000,0.000000000,0.000000000,0.000000000,0.000000000,0.000000000,0.000000000,0.000000000,0.000000000,0.000000000,0.000000000,0.000000000,0.006283013,0.000000000,0.000000000,0.000000000,0.001581239,0.004478085,0.000000000,0.000000000,0.831847665,0.000000000,0.000000000,0.555004020,1.039862469,0.198555135,0.000000000,0.887631281,0.064718138,1.192093657,0.332392131
1686072681.357230,19.000000000,1686072681.302616119,0.004462294,0.000000000,0.000000000,0.000000000,0.000000000,0.000000000,0.000000000,0.000000000,0.000000000,0.000000000,0.000000000,0.001753278,0.000000000,0.000000000,0.000000000,0.000000000,0.000000000,0.000000000,0.000000000,0.000000000,0.000000000,0.000000000,0.000000000,0.000000000,0.000000000,0.000000000,0.000000000,0.000000000,0.005436845,0.000000000,0.000000000,0.000000000,0.001753278,0.004731315,0.000000000,0.000000000,0.842856416,0.000000000,0.000000000,0.538138515,1.069443239,0.270162318,0.000000000,0.935842436,0.132593215,1.203044041,0.407731421
1686072681.739346,20.000000000,1686072681.703918695,0.003974027,0.000000000,0.000000000,0.000000000,0.000000000,0.000000000,0.000000000,0.000000000,0.000000000,0.000000000,0.000000000,0.001488062,0.000000000,0.000000000,0.000000000,0.000000000,0.000000000,0.000000000,0.000000000,0.000000000,0.000000000,0.000000000,0.000000000,0.000000000,0.000000000,0.000000000,0.000000000,0.000000000,0.005648276,0.000000000,0.000000000,0.000000000,0.001488062,0.004365353,0.000000000,0.000000000,0.850688465,0.000000000,0.000000000,0.525670177,1.102995567,0.338331877,0.000000000,0.976915794,0.206190239,1.229075339,0.470473514
1686072682.111566,21.000000000,1686072682.105187654,0.003867719,0.000000000,0.000000000,0.000000000,0.000000000,0.000000000,0.000000000,0.000000000,0.000000000,0.000000000,0.000000000,0.001193498,0.000000000,0.000000000,0.000000000,0.000000000,0.000000000,0.000000000,0.000000000,0.000000000,0.000000000,0.000000000,0.000000000,0.000000000,0.000000000,0.000000000,0.000000000,0.000000000,0.005735874,0.000000000,0.000000000,0.000000000,0.001193498,0.003936714,0.000000000,0.000000000,0.859183172,0.000000000,0.000000000,0.511668131,1.135699070,0.395166120,0.000000000,1.011317091,0.269679636,1.260081049,0.520652605
1686072682.503816,22.000000000,1686072682.506524801,0.003543584,0.000000000,0.000000000,0.000000000,0.000000000,0.000000000,0.000000000,0.000000000,0.000000000,0.000000000,0.000000000,0.001169169,0.000000000,0.000000000,0.000000000,0.000000000,0.000000000,0.000000000,0.000000000,0.000000000,0.000000000,0.000000000,0.000000000,0.000000000,0.000000000,0.000000000,0.000000000,0.000000000,0.005066080,0.000000000,0.000000000,0.000000000,0.001169169,0.003828324,0.000000000,0.000000000,0.870013307,0.000000000,0.000000000,0.493028240,1.175367206,0.457143623,0.000000000,1.056311178,0.333396720,1.294423235,0.580890527
1686072682.906109,23.000000000,1686072682.907851458,0.003506830,0.000000000,0.000000000,0.000000000,0.000000000,0.000000000,0.000000000,0.000000000,0.000000000,0.000000000,0.000000000,0.001324941,0.000000000,0.000000000,0.000000000,0.000000000,0.000000000,0.000000000,0.000000000,0.000000000,0.000000000,0.000000000,0.000000000,0.000000000,0.000000000,0.000000000,0.000000000,0.000000000,0.005144803,0.000000000,0.000000000,0.000000000,0.001324941,0.003795672,0.000000000,0.000000000,0.873901729,0.000000000,0.000000000,0.486102631,1.217268125,0.525542601,0.000000000,1.098831132,0.402324546,1.335705117,0.648760655
1686072683.308385,24.000000000,1686072683.310176849,0.003148723,0.000000000,0.000000000,0.000000000,0.000000000,0.000000000,0.000000000,0.000000000,0.000000000,0.000000000,0.000000000,0.001421240,0.000000000,0.000000000,0.000000000,0.000000000,0.000000000,0.000000000,0.000000000,0.000000000,0.000000000,0.000000000,0.000000000,0.000000000,0.000000000,0.000000000,0.000000000,0.000000000,0.005641426,0.000000000,0.000000000,0.000000000,0.001421240,0.004093507,0.000000000,0.000000000,0.884695245,0.000000000,0.000000000,0.466169844,1.261061795,0.593645206,0.000000000,1.148834836,0.465684169,1.373288753,0.721606243
1686072683.710685,25.000000000,1686072683.713917255,0.002946766,0.000000000,0.000000000,0.000000000,0.000000000,0.000000000,0.000000000,0.000000000,0.000000000,0.000000000,0.000000000,0.001659383,0.000000000,0.000000000,0.000000000,0.000000000,0.000000000,0.000000000,0.000000000,0.000000000,0.000000000,0.000000000,0.000000000,0.000000000,0.000000000,0.000000000,0.000000000,0.000000000,0.004960089,0.000000000,0.000000000,0.000000000,0.001659383,0.004095836,0.000000000,0.000000000,0.903178866,0.000000000,0.000000000,0.429264412,1.307668319,0.652250934,0.000000000,1.199100080,0.524253495,1.416236559,0.780248373
1686072684.305617,26.000000000,1686072684.312505484,0.003556127,0.000000000,0.000000000,0.000000000,0.000000000,0.000000000,0.000000000,0.000000000,0.000000000,0.000000000,0.000000000,0.002574668,0.000000000,0.000000000,0.000000000,0.000000000,0.000000000,0.000000000,0.000000000,0.000000000,0.000000000,0.000000000,0.000000000,0.000000000,0.000000000,0.000000000,0.000000000,0.000000000,0.006303599,0.000000000,0.000000000,0.000000000,0.002574668,0.005282058,0.000000000,0.000000000,0.930190258,0.000000000,0.000000000,0.367077763,1.382798370,0.735000883,0.000000000,1.263531828,0.589645347,1.502064912,0.880356419
1686072684.728106,27.000000000,1686072684.713827133,0.003343967,0.000000000,0.000000000,0.000000000,0.000000000,0.000000000,0.000000000,0.000000000,0.000000000,0.000000000,0.000000000,0.002244789,0.000000000,0.000000000,0.000000000,0.000000000,0.000000000,0.000000000,0.000000000,0.000000000,0.000000000,0.000000000,0.000000000,0.000000000,0.000000000,0.000000000,0.000000000,0.000000000,0.006741907,0.000000000,0.000000000,0.000000000,0.002244789,0.004923802,0.000000000,0.000000000,0.947730400,0.000000000,0.000000000,0.319072230,1.443085051,0.787002045,0.000000000,1.327430962,0.646662422,1.558739140,0.927341668
1686072685.150453,28.000000000,1686072685.115006924,0.003336195,0.000000000,0.000000000,0.000000000,0.000000000,0.000000000,0.000000000,0.000000000,0.000000000,0.000000000,0.000000000,0.002321581,0.000000000,0.000000000,0.000000000,0.000000000,0.000000000,0.000000000,0.000000000,0.000000000,0.000000000,0.000000000,0.000000000,0.000000000,0.000000000,0.000000000,0.000000000,0.000000000,0.005869794,0.000000000,0.000000000,0.000000000,0.002321581,0.005118967,0.000000000,0.000000000,0.958839436,0.000000000,0.000000000,0.283948827,1.506482093,0.832635479,0.000000000,1.390962475,0.689541562,1.622001710,0.975729396
1686072685.552760,29.000000000,1686072685.516235590,0.002994010,0.000000000,0.000000000,0.000000000,0.000000000,0.000000000,0.000000000,0.000000000,0.000000000,0.000000000,0.000000000,0.001884046,0.000000000,0.000000000,0.000000000,0.000000000,0.000000000,0.000000000,0.000000000,0.000000000,0.000000000,0.000000000,0.000000000,0.000000000,0.000000000,0.000000000,0.000000000,0.000000000,0.005501490,0.000000000,0.000000000,0.000000000,0.001884046,0.005017806,0.000000000,0.000000000,0.968196041,0.000000000,0.000000000,0.250192778,1.568032841,0.866143765,0.000000000,1.458597751,0.724470820,1.677467932,1.007816711
1686072685.914768,30.000000000,1686072685.917592287,0.003132023,0.000000000,0.000000000,0.000000000,0.000000000,0.000000000,0.000000000,0.000000000,0.000000000,0.000000000,0.000000000,0.001922677,0.000000000,0.000000000,0.000000000,0.000000000,0.000000000,0.000000000,0.000000000,0.000000000,0.000000000,0.000000000,0.000000000,0.000000000,0.000000000,0.000000000,0.000000000,0.000000000,0.006002138,0.000000000,0.000000000,0.000000000,0.001922677,0.004817267,0.000000000,0.000000000,0.956729229,0.000000000,0.000000000,0.290979693,1.626859870,0.893442608,0.000000000,1.514930920,0.754629538,1.738788821,1.032255678
